# vsim -vopt work.tb "+UVM_TESTNAME=br3_test" -voptargs="+acc=npr" -assertdebug -l run.log -coverage -c -do "coverage save -onexit -assert -directive -cvg -codeAll coverage.ucdb; coverage report -detail;run -all; exit" 
# Start time: 21:37:51 on Aug 05,2025
# ** Note: (vsim-3812) Design is being optimized...
# //  Questa Sim
# //  Version 10.6c linux Jul 25 2017
# //
# //  Copyright 1991-2017 Mentor Graphics Corporation
# //  All Rights Reserved.
# //
# //  QuestaSim and its associated documentation contain trade
# //  secrets and commercial or financial information that are the property of
# //  Mentor Graphics Corporation and are privileged, confidential,
# //  and exempt from disclosure under the Freedom of Information Act,
# //  5 U.S.C. Section 552. Furthermore, this information
# //  is prohibited from disclosure under the Trade Secrets Act,
# //  18 U.S.C. Section 1905.
# //
# Loading sv_std.std
# Loading mtiUvm.uvm_pkg
# Loading work.ral_top_sv_unit(fast)
# Loading work.tb(fast)
# Loading work.top(fast)
# Loading work.ral_interface(fast)
# Loading mtiUvm.questa_uvm_pkg(fast)
# Loading work.ral_interface(fast)
# Loading /tools/mentor/questasim_10.6c/questasim/uvm-1.1d/linux/uvm_dpi.so
# coverage save -onexit -assert -directive -cvg -codeAll coverage.ucdb
#  coverage report -detail
# Coverage Report by file with details
# 
# =================================================================================
# === File: ../src/testbench/../rtl/design.v
# =================================================================================
# Statement Coverage:
#     Enabled Coverage            Active      Hits    Misses % Covered
#     ----------------            ------      ----    ------ ---------
#     Stmts                           16         0        16       0.0
# 
# ================================Statement Details================================
# 
# Statement Coverage for file ../src/testbench/../rtl/design.v --
# 
#     1                                                module top 
#     2                                                  (  
#     3                                                    input               pclk,
#     4                                                    input               presetn,
#     5                                                    input   [31:0]      paddr,
#     6                                                    input   [31:0]      pwdata,
#     7                                                    input               psel,
#     8                                                    input               pwrite,
#     9                                                    input               penable,
#     10                                                   output  [31:0]      prdata
#     11                                                 );
#     12                                               
#     13                                                 reg [3:0]  cntrl = 0; ///   cntrl :  [reg4 reg3 reg2 reg1]
#     14                                                 reg [31:0] reg1  = 0; //    datainput 1
#     15                                                 reg [31:0] reg2  = 0; ///   datainput 2
#     16                                                 reg [31:0] reg3  = 0; ///   datainput 3
#     17                                                 reg [31:0] reg4  = 0; //    datainput 4
#     18                                               
#     19                                                 reg [31:0] rdata_tmp = 0;    
#     20              1                    ***0***     always @ (posedge pclk) 
#     21                                                   begin
#     22                                                     if( !presetn ) 
#     23                                                       begin
#     24              1                    ***0***               cntrl    <= 4'h0;
#     25              1                    ***0***               reg1     <= 32'h5A5A_5555;
#     26              1                    ***0***               reg2     <= 32'h1234_9876;
#     27              1                    ***0***               reg3     <= 32'hA5A5_0000;;
#     28              1                    ***0***               reg4     <= 32'h0000_FFFF;
#     29                                               //          rdata_tmp <= 32'h00000000;
#     30                                                       end
#     31                                                     else if( psel && penable && pwrite )
#     32                                                       begin
#     33                                                         case( paddr )
#     34              1                    ***0***                 'h0     : cntrl <= pwdata;
#     35              1                    ***0***                 'h8     : reg2  <= pwdata;
#     36              1                    ***0***                 'hc     : reg3  <= pwdata;
#     37              1                    ***0***                 'h10    : reg4  <= pwdata;
#     38                                                         endcase
#     39                                                       end
#     40                                                     else if (psel && penable && !pwrite )
#     41                                                       begin
#     42                                                         case( paddr )
#     43              1                    ***0***                 'h0     : rdata_tmp <= {28'h0000000,cntrl};
#     44              1                    ***0***                 'h4     : rdata_tmp <= reg1;
#     45              1                    ***0***                 'h8     : rdata_tmp <= reg2;
#     46              1                    ***0***                 'hc     : rdata_tmp <= reg3;
#     47              1                    ***0***                 'h10    : rdata_tmp <= reg4;
#     48              1                    ***0***                 default : rdata_tmp <= 32'h00000000;
#     49                                                         endcase 
#     50                                                       end      
#     51                                                   end   
#     52                                                 assign prdata =  rdata_tmp; 
#     53                                               endmodule
# 
# Branch Coverage:
#     Enabled Coverage            Active      Hits    Misses % Covered
#     ----------------            ------      ----    ------ ---------
#     Branches                        15         0        15       0.0
# 
# ================================Branch Details================================
# 
# Branch Coverage for file ../src/testbench/../rtl/design.v --
# 
# ------------------------------------IF Branch------------------------------------
#     22                                   ***0***     Count coming in to IF
#     22              1                    ***0***           if( !presetn ) 
#     31              1                    ***0***           else if( psel && penable && pwrite )
#     40              1                    ***0***           else if (psel && penable && !pwrite )
#                                          ***0***     All False Count
# Branch totals: 0 hits of 4 branches = 0.0%
# 
# ------------------------------------CASE Branch------------------------------------
#     33                                   ***0***     Count coming in to CASE
#     34              1                    ***0***                 'h0     : cntrl <= pwdata;
#     35              1                    ***0***                 'h8     : reg2  <= pwdata;
#     36              1                    ***0***                 'hc     : reg3  <= pwdata;
#     37              1                    ***0***                 'h10    : reg4  <= pwdata;
#                                          ***0***     All False Count
# Branch totals: 0 hits of 5 branches = 0.0%
# 
# ------------------------------------CASE Branch------------------------------------
#     42                                   ***0***     Count coming in to CASE
#     43              1                    ***0***                 'h0     : rdata_tmp <= {28'h0000000,cntrl};
#     44              1                    ***0***                 'h4     : rdata_tmp <= reg1;
#     45              1                    ***0***                 'h8     : rdata_tmp <= reg2;
#     46              1                    ***0***                 'hc     : rdata_tmp <= reg3;
#     47              1                    ***0***                 'h10    : rdata_tmp <= reg4;
#     48              1                    ***0***                 default : rdata_tmp <= 32'h00000000;
# Branch totals: 0 hits of 6 branches = 0.0%
# 
# 
# Condition Coverage:
#     Enabled Coverage            Active   Covered    Misses % Covered
#     ----------------            ------      ----    ------ ---------
#     FEC Condition Terms              6         0         6       0.0
# 
# ================================Condition Details================================
# 
# Condition Coverage for file ../src/testbench/../rtl/design.v --
# 
# ----------------Focused Condition View-------------------
# Line       31 Item    1  ((psel && penable) && pwrite)
# Condition totals: 0 of 3 input terms covered = 0.0%
# 
#   Input Term   Covered  Reason for no coverage   Hint
#  -----------  --------  -----------------------  --------------
#         psel         N  No hits                  Hit '_0' and '_1'
#      penable         N  No hits                  Hit '_0' and '_1'
#       pwrite         N  No hits                  Hit '_0' and '_1'
# 
#      Rows:       Hits  FEC Target            Non-masking condition(s)      
#  ---------  ---------  --------------------  -------------------------     
#   Row   1:    ***0***  psel_0                -                             
#   Row   2:    ***0***  psel_1                (pwrite && penable)           
#   Row   3:    ***0***  penable_0             psel                          
#   Row   4:    ***0***  penable_1             (pwrite && psel)              
#   Row   5:    ***0***  pwrite_0              (psel && penable)             
#   Row   6:    ***0***  pwrite_1              (psel && penable)             
# 
# ----------------Focused Condition View-------------------
# Line       40 Item    1  ((psel && penable) && ~pwrite)
# Condition totals: 0 of 3 input terms covered = 0.0%
# 
#   Input Term   Covered  Reason for no coverage   Hint
#  -----------  --------  -----------------------  --------------
#         psel         N  No hits                  Hit '_0' and '_1'
#      penable         N  No hits                  Hit '_0' and '_1'
#       pwrite         N  No hits                  Hit '_0' and '_1'
# 
#      Rows:       Hits  FEC Target            Non-masking condition(s)      
#  ---------  ---------  --------------------  -------------------------     
#   Row   1:    ***0***  psel_0                -                             
#   Row   2:    ***0***  psel_1                (~pwrite && penable)          
#   Row   3:    ***0***  penable_0             psel                          
#   Row   4:    ***0***  penable_1             (~pwrite && psel)             
#   Row   5:    ***0***  pwrite_0              (psel && penable)             
#   Row   6:    ***0***  pwrite_1              (psel && penable)             
# 
# 
# Expression Coverage:
#     Enabled Coverage            Active   Covered    Misses % Covered
#     ----------------            ------      ----    ------ ---------
#     FEC Expression Terms             0         0         0     100.0
# FSM Coverage:
#     Enabled Coverage            Active      Hits    Misses % Covered
#     ----------------            ------      ----    ------ ---------
#     FSMs                                                       100.0
#         States                       0         0         0     100.0
#         Transitions                  0         0         0     100.0
# Toggle Coverage:
#     Enabled Coverage            Active      Hits    Misses % Covered
#     ----------------            ------      ----    ------ ---------
#     Toggle Bins                    530         0       530       0.0
# 
# ================================Toggle Details================================
# 
# Toggle Coverage for File ../src/testbench/../rtl/design.v --
# 
#        Line                                   Node      1H->0L      0L->1H  "Coverage"
# --------------------------------------------------------------------------------------
#           3                                   pclk           0           0        0.00 
#           4                                presetn           0           0        0.00 
#           5                               paddr[9]           0           0        0.00 
#           5                               paddr[8]           0           0        0.00 
#           5                               paddr[7]           0           0        0.00 
#           5                               paddr[6]           0           0        0.00 
#           5                               paddr[5]           0           0        0.00 
#           5                               paddr[4]           0           0        0.00 
#           5                               paddr[3]           0           0        0.00 
#           5                              paddr[31]           0           0        0.00 
#           5                              paddr[30]           0           0        0.00 
#           5                               paddr[2]           0           0        0.00 
#           5                              paddr[29]           0           0        0.00 
#           5                              paddr[28]           0           0        0.00 
#           5                              paddr[27]           0           0        0.00 
#           5                              paddr[26]           0           0        0.00 
#           5                              paddr[25]           0           0        0.00 
#           5                              paddr[24]           0           0        0.00 
#           5                              paddr[23]           0           0        0.00 
#           5                              paddr[22]           0           0        0.00 
#           5                              paddr[21]           0           0        0.00 
#           5                              paddr[20]           0           0        0.00 
#           5                               paddr[1]           0           0        0.00 
#           5                              paddr[19]           0           0        0.00 
#           5                              paddr[18]           0           0        0.00 
#           5                              paddr[17]           0           0        0.00 
#           5                              paddr[16]           0           0        0.00 
#           5                              paddr[15]           0           0        0.00 
#           5                              paddr[14]           0           0        0.00 
#           5                              paddr[13]           0           0        0.00 
#           5                              paddr[12]           0           0        0.00 
#           5                              paddr[11]           0           0        0.00 
#           5                              paddr[10]           0           0        0.00 
#           5                               paddr[0]           0           0        0.00 
#           6                              pwdata[9]           0           0        0.00 
#           6                              pwdata[8]           0           0        0.00 
#           6                              pwdata[7]           0           0        0.00 
#           6                              pwdata[6]           0           0        0.00 
#           6                              pwdata[5]           0           0        0.00 
#           6                              pwdata[4]           0           0        0.00 
#           6                              pwdata[3]           0           0        0.00 
#           6                             pwdata[31]           0           0        0.00 
#           6                             pwdata[30]           0           0        0.00 
#           6                              pwdata[2]           0           0        0.00 
#           6                             pwdata[29]           0           0        0.00 
#           6                             pwdata[28]           0           0        0.00 
#           6                             pwdata[27]           0           0        0.00 
#           6                             pwdata[26]           0           0        0.00 
#           6                             pwdata[25]           0           0        0.00 
#           6                             pwdata[24]           0           0        0.00 
#           6                             pwdata[23]           0           0        0.00 
#           6                             pwdata[22]           0           0        0.00 
#           6                             pwdata[21]           0           0        0.00 
#           6                             pwdata[20]           0           0        0.00 
#           6                              pwdata[1]           0           0        0.00 
#           6                             pwdata[19]           0           0        0.00 
#           6                             pwdata[18]           0           0        0.00 
#           6                             pwdata[17]           0           0        0.00 
#           6                             pwdata[16]           0           0        0.00 
#           6                             pwdata[15]           0           0        0.00 
#           6                             pwdata[14]           0           0        0.00 
#           6                             pwdata[13]           0           0        0.00 
#           6                             pwdata[12]           0           0        0.00 
#           6                             pwdata[11]           0           0        0.00 
#           6                             pwdata[10]           0           0        0.00 
#           6                              pwdata[0]           0           0        0.00 
#           7                                   psel           0           0        0.00 
#           8                                 pwrite           0           0        0.00 
#           9                                penable           0           0        0.00 
#          10                              prdata[9]           0           0        0.00 
#          10                              prdata[8]           0           0        0.00 
#          10                              prdata[7]           0           0        0.00 
#          10                              prdata[6]           0           0        0.00 
#          10                              prdata[5]           0           0        0.00 
#          10                              prdata[4]           0           0        0.00 
#          10                              prdata[3]           0           0        0.00 
#          10                             prdata[31]           0           0        0.00 
#          10                             prdata[30]           0           0        0.00 
#          10                              prdata[2]           0           0        0.00 
#          10                             prdata[29]           0           0        0.00 
#          10                             prdata[28]           0           0        0.00 
#          10                             prdata[27]           0           0        0.00 
#          10                             prdata[26]           0           0        0.00 
#          10                             prdata[25]           0           0        0.00 
#          10                             prdata[24]           0           0        0.00 
#          10                             prdata[23]           0           0        0.00 
#          10                             prdata[22]           0           0        0.00 
#          10                             prdata[21]           0           0        0.00 
#          10                             prdata[20]           0           0        0.00 
#          10                              prdata[1]           0           0        0.00 
#          10                             prdata[19]           0           0        0.00 
#          10                             prdata[18]           0           0        0.00 
#          10                             prdata[17]           0           0        0.00 
#          10                             prdata[16]           0           0        0.00 
#          10                             prdata[15]           0           0        0.00 
#          10                             prdata[14]           0           0        0.00 
#          10                             prdata[13]           0           0        0.00 
#          10                             prdata[12]           0           0        0.00 
#          10                             prdata[11]           0           0        0.00 
#          10                             prdata[10]           0           0        0.00 
#          10                              prdata[0]           0           0        0.00 
#          13                               cntrl[3]           0           0        0.00 
#          13                               cntrl[2]           0           0        0.00 
#          13                               cntrl[1]           0           0        0.00 
#          13                               cntrl[0]           0           0        0.00 
#          14                                reg1[9]           0           0        0.00 
#          14                                reg1[8]           0           0        0.00 
#          14                                reg1[7]           0           0        0.00 
#          14                                reg1[6]           0           0        0.00 
#          14                                reg1[5]           0           0        0.00 
#          14                                reg1[4]           0           0        0.00 
#          14                                reg1[3]           0           0        0.00 
#          14                               reg1[31]           0           0        0.00 
#          14                               reg1[30]           0           0        0.00 
#          14                                reg1[2]           0           0        0.00 
#          14                               reg1[29]           0           0        0.00 
#          14                               reg1[28]           0           0        0.00 
#          14                               reg1[27]           0           0        0.00 
#          14                               reg1[26]           0           0        0.00 
#          14                               reg1[25]           0           0        0.00 
#          14                               reg1[24]           0           0        0.00 
#          14                               reg1[23]           0           0        0.00 
#          14                               reg1[22]           0           0        0.00 
#          14                               reg1[21]           0           0        0.00 
#          14                               reg1[20]           0           0        0.00 
#          14                                reg1[1]           0           0        0.00 
#          14                               reg1[19]           0           0        0.00 
#          14                               reg1[18]           0           0        0.00 
#          14                               reg1[17]           0           0        0.00 
#          14                               reg1[16]           0           0        0.00 
#          14                               reg1[15]           0           0        0.00 
#          14                               reg1[14]           0           0        0.00 
#          14                               reg1[13]           0           0        0.00 
#          14                               reg1[12]           0           0        0.00 
#          14                               reg1[11]           0           0        0.00 
#          14                               reg1[10]           0           0        0.00 
#          14                                reg1[0]           0           0        0.00 
#          15                                reg2[9]           0           0        0.00 
#          15                                reg2[8]           0           0        0.00 
#          15                                reg2[7]           0           0        0.00 
#          15                                reg2[6]           0           0        0.00 
#          15                                reg2[5]           0           0        0.00 
#          15                                reg2[4]           0           0        0.00 
#          15                                reg2[3]           0           0        0.00 
#          15                               reg2[31]           0           0        0.00 
#          15                               reg2[30]           0           0        0.00 
#          15                                reg2[2]           0           0        0.00 
#          15                               reg2[29]           0           0        0.00 
#          15                               reg2[28]           0           0        0.00 
#          15                               reg2[27]           0           0        0.00 
#          15                               reg2[26]           0           0        0.00 
#          15                               reg2[25]           0           0        0.00 
#          15                               reg2[24]           0           0        0.00 
#          15                               reg2[23]           0           0        0.00 
#          15                               reg2[22]           0           0        0.00 
#          15                               reg2[21]           0           0        0.00 
#          15                               reg2[20]           0           0        0.00 
#          15                                reg2[1]           0           0        0.00 
#          15                               reg2[19]           0           0        0.00 
#          15                               reg2[18]           0           0        0.00 
#          15                               reg2[17]           0           0        0.00 
#          15                               reg2[16]           0           0        0.00 
#          15                               reg2[15]           0           0        0.00 
#          15                               reg2[14]           0           0        0.00 
#          15                               reg2[13]           0           0        0.00 
#          15                               reg2[12]           0           0        0.00 
#          15                               reg2[11]           0           0        0.00 
#          15                               reg2[10]           0           0        0.00 
#          15                                reg2[0]           0           0        0.00 
#          16                                reg3[9]           0           0        0.00 
#          16                                reg3[8]           0           0        0.00 
#          16                                reg3[7]           0           0        0.00 
#          16                                reg3[6]           0           0        0.00 
#          16                                reg3[5]           0           0        0.00 
#          16                                reg3[4]           0           0        0.00 
#          16                                reg3[3]           0           0        0.00 
#          16                               reg3[31]           0           0        0.00 
#          16                               reg3[30]           0           0        0.00 
#          16                                reg3[2]           0           0        0.00 
#          16                               reg3[29]           0           0        0.00 
#          16                               reg3[28]           0           0        0.00 
#          16                               reg3[27]           0           0        0.00 
#          16                               reg3[26]           0           0        0.00 
#          16                               reg3[25]           0           0        0.00 
#          16                               reg3[24]           0           0        0.00 
#          16                               reg3[23]           0           0        0.00 
#          16                               reg3[22]           0           0        0.00 
#          16                               reg3[21]           0           0        0.00 
#          16                               reg3[20]           0           0        0.00 
#          16                                reg3[1]           0           0        0.00 
#          16                               reg3[19]           0           0        0.00 
#          16                               reg3[18]           0           0        0.00 
#          16                               reg3[17]           0           0        0.00 
#          16                               reg3[16]           0           0        0.00 
#          16                               reg3[15]           0           0        0.00 
#          16                               reg3[14]           0           0        0.00 
#          16                               reg3[13]           0           0        0.00 
#          16                               reg3[12]           0           0        0.00 
#          16                               reg3[11]           0           0        0.00 
#          16                               reg3[10]           0           0        0.00 
#          16                                reg3[0]           0           0        0.00 
#          17                                reg4[9]           0           0        0.00 
#          17                                reg4[8]           0           0        0.00 
#          17                                reg4[7]           0           0        0.00 
#          17                                reg4[6]           0           0        0.00 
#          17                                reg4[5]           0           0        0.00 
#          17                                reg4[4]           0           0        0.00 
#          17                                reg4[3]           0           0        0.00 
#          17                               reg4[31]           0           0        0.00 
#          17                               reg4[30]           0           0        0.00 
#          17                                reg4[2]           0           0        0.00 
#          17                               reg4[29]           0           0        0.00 
#          17                               reg4[28]           0           0        0.00 
#          17                               reg4[27]           0           0        0.00 
#          17                               reg4[26]           0           0        0.00 
#          17                               reg4[25]           0           0        0.00 
#          17                               reg4[24]           0           0        0.00 
#          17                               reg4[23]           0           0        0.00 
#          17                               reg4[22]           0           0        0.00 
#          17                               reg4[21]           0           0        0.00 
#          17                               reg4[20]           0           0        0.00 
#          17                                reg4[1]           0           0        0.00 
#          17                               reg4[19]           0           0        0.00 
#          17                               reg4[18]           0           0        0.00 
#          17                               reg4[17]           0           0        0.00 
#          17                               reg4[16]           0           0        0.00 
#          17                               reg4[15]           0           0        0.00 
#          17                               reg4[14]           0           0        0.00 
#          17                               reg4[13]           0           0        0.00 
#          17                               reg4[12]           0           0        0.00 
#          17                               reg4[11]           0           0        0.00 
#          17                               reg4[10]           0           0        0.00 
#          17                                reg4[0]           0           0        0.00 
#          19                           rdata_tmp[9]           0           0        0.00 
#          19                           rdata_tmp[8]           0           0        0.00 
#          19                           rdata_tmp[7]           0           0        0.00 
#          19                           rdata_tmp[6]           0           0        0.00 
#          19                           rdata_tmp[5]           0           0        0.00 
#          19                           rdata_tmp[4]           0           0        0.00 
#          19                           rdata_tmp[3]           0           0        0.00 
#          19                          rdata_tmp[31]           0           0        0.00 
#          19                          rdata_tmp[30]           0           0        0.00 
#          19                           rdata_tmp[2]           0           0        0.00 
#          19                          rdata_tmp[29]           0           0        0.00 
#          19                          rdata_tmp[28]           0           0        0.00 
#          19                          rdata_tmp[27]           0           0        0.00 
#          19                          rdata_tmp[26]           0           0        0.00 
#          19                          rdata_tmp[25]           0           0        0.00 
#          19                          rdata_tmp[24]           0           0        0.00 
#          19                          rdata_tmp[23]           0           0        0.00 
#          19                          rdata_tmp[22]           0           0        0.00 
#          19                          rdata_tmp[21]           0           0        0.00 
#          19                          rdata_tmp[20]           0           0        0.00 
#          19                           rdata_tmp[1]           0           0        0.00 
#          19                          rdata_tmp[19]           0           0        0.00 
#          19                          rdata_tmp[18]           0           0        0.00 
#          19                          rdata_tmp[17]           0           0        0.00 
#          19                          rdata_tmp[16]           0           0        0.00 
#          19                          rdata_tmp[15]           0           0        0.00 
#          19                          rdata_tmp[14]           0           0        0.00 
#          19                          rdata_tmp[13]           0           0        0.00 
#          19                          rdata_tmp[12]           0           0        0.00 
#          19                          rdata_tmp[11]           0           0        0.00 
#          19                          rdata_tmp[10]           0           0        0.00 
#          19                           rdata_tmp[0]           0           0        0.00 
# 
# Total Node Count     =        265 
# Toggled Node Count   =          0 
# Untoggled Node Count =        265 
# 
# Toggle Coverage      =        0.0% (0 of 530 bins)
# 
# =================================================================================
# === File: ../src/testbench/ral_adapter.sv
# =================================================================================
# Statement Coverage:
#     Enabled Coverage            Active      Hits    Misses % Covered
#     ----------------            ------      ----    ------ ---------
#     Stmts                           20         0        20       0.0
# 
# ================================Statement Details================================
# 
# Statement Coverage for file ../src/testbench/ral_adapter.sv --
# 
#     1                                                class ral_adapter extends uvm_reg_adapter;
#     2               1                    ***0***       `uvm_object_utils(ral_adapter)
#     2               2                    ***0***     
#     2               3                    ***0***     
#     2               4                    ***0***     
#     2               5                    ***0***     
#     2               6                    ***0***     
#     2               7                    ***0***     
#     2               8                    ***0***     
#     2               9                    ***0***     
#     2              10                    ***0***     
#     3                                                  
#     4                                                  function new(string name = "ral_adapter");
#     5               1                    ***0***         super.new(name);
#     6                                                  endfunction
#     7                                                  
#     8                                                  function uvm_sequence_item reg2bus(const ref uvm_reg_bus_op rw);
#     9                                                    ral_seq_item item;
#     10              1                    ***0***         item = ral_seq_item::type_id::create("item");
#     11              1                    ***0***         item.pwrite = (rw.kind == UVM_WRITE)?1'b1:1'b0;
#     12              1                    ***0***         item.paddr = rw.addr;
#     13              1                    ***0***         item.pwdata = rw.data;
#     14              1                    ***0***         return item;
#     15                                                 endfunction
#     16                                                 
#     17                                                 function void bus2reg(uvm_sequence_item bus_item,ref uvm_reg_bus_op rw);
#     18                                                   ral_seq_item item;
#     19                                                   assert ($cast(item,bus_item));
#     20              1                    ***0***         rw.kind = (item.pwrite == 1'b1)?UVM_WRITE:UVM_READ;
#     21              1                    ***0***         rw.data = (item.pwrite == 1'b1)?item.pwdata:item.prdata;
#     22              1                    ***0***         rw.addr = item.paddr;
#     23              1                    ***0***         rw.status = UVM_IS_OK;
#     24                                                 endfunction
#     25                                               endclass
# 
# Branch Coverage:
#     Enabled Coverage            Active      Hits    Misses % Covered
#     ----------------            ------      ----    ------ ---------
#     Branches                        14         0        14       0.0
# 
# ================================Branch Details================================
# 
# Branch Coverage for file ../src/testbench/ral_adapter.sv --
# 
# ------------------------------------IF Branch------------------------------------
#     2                                    ***0***     Count coming in to IF
#     2               1                    ***0***       `uvm_object_utils(ral_adapter)
#                                          ***0***     All False Count
# Branch totals: 0 hits of 2 branches = 0.0%
# 
# ------------------------------------IF Branch------------------------------------
#     2                                    ***0***     Count coming in to IF
#     2               2                    ***0***       `uvm_object_utils(ral_adapter)
#                                          ***0***     All False Count
# Branch totals: 0 hits of 2 branches = 0.0%
# 
# ------------------------------------IF Branch------------------------------------
#     2                                    ***0***     Count coming in to IF
#     2               3                    ***0***       `uvm_object_utils(ral_adapter)
#     2               4                    ***0***       `uvm_object_utils(ral_adapter)
# Branch totals: 0 hits of 2 branches = 0.0%
# 
# ------------------------------------IF Branch------------------------------------
#     2                                    ***0***     Count coming in to IF
#     2               5                    ***0***       `uvm_object_utils(ral_adapter)
#                                          ***0***     All False Count
# Branch totals: 0 hits of 2 branches = 0.0%
# 
# ------------------------------------IF Branch------------------------------------
#     2                                    ***0***     Count coming in to IF
#     2               6                    ***0***       `uvm_object_utils(ral_adapter)
#                                          ***0***     All False Count
# Branch totals: 0 hits of 2 branches = 0.0%
# 
# ------------------------------------IF Branch------------------------------------
#     20                                   ***0***     Count coming in to IF
#     20              1                    ***0***         rw.kind = (item.pwrite == 1'b1)?UVM_WRITE:UVM_READ;
#     20              2                    ***0***         rw.kind = (item.pwrite == 1'b1)?UVM_WRITE:UVM_READ;
# Branch totals: 0 hits of 2 branches = 0.0%
# 
# ------------------------------------IF Branch------------------------------------
#     21                                   ***0***     Count coming in to IF
#     21              1                    ***0***         rw.data = (item.pwrite == 1'b1)?item.pwdata:item.prdata;
#     21              2                    ***0***         rw.data = (item.pwrite == 1'b1)?item.pwdata:item.prdata;
# Branch totals: 0 hits of 2 branches = 0.0%
# 
# 
# Condition Coverage:
#     Enabled Coverage            Active   Covered    Misses % Covered
#     ----------------            ------      ----    ------ ---------
#     FEC Condition Terms              0         0         0     100.0
# Expression Coverage:
#     Enabled Coverage            Active   Covered    Misses % Covered
#     ----------------            ------      ----    ------ ---------
#     FEC Expression Terms             0         0         0     100.0
# FSM Coverage:
#     Enabled Coverage            Active      Hits    Misses % Covered
#     ----------------            ------      ----    ------ ---------
#     FSMs                                                       100.0
#         States                       0         0         0     100.0
#         Transitions                  0         0         0     100.0
# Toggle Coverage:
#     Enabled Coverage            Active      Hits    Misses % Covered
#     ----------------            ------      ----    ------ ---------
#     Toggle Bins                      0         0         0     100.0
# 
# ================================Toggle Details================================
# 
# Toggle Coverage for File ../src/testbench/ral_adapter.sv --
# 
#        Line                                   Node      1H->0L      0L->1H  "Coverage"
# --------------------------------------------------------------------------------------
# 
# Total Node Count     =          0 
# Toggled Node Count   =          0 
# Untoggled Node Count =          0 
# 
# Toggle Coverage      =      100.0% (0 of 0 bins)
# 
# =================================================================================
# === File: ../src/testbench/ral_agent.sv
# =================================================================================
# Statement Coverage:
#     Enabled Coverage            Active      Hits    Misses % Covered
#     ----------------            ------      ----    ------ ---------
#     Stmts                           10         0        10       0.0
# 
# ================================Statement Details================================
# 
# Statement Coverage for file ../src/testbench/ral_agent.sv --
# 
#     1                                                class ral_agent extends uvm_agent;
#     2                                                
#     3               1                    ***0***       `uvm_component_utils(ral_agent)
#     3               2                    ***0***     
#     3               3                    ***0***     
#     4                                                
#     5                                                  ral_driver drv;
#     6                                                  ral_sequencer seqr;
#     7                                                  ral_mon mon;
#     8                                                
#     9                                                  function new(string name = "ral_agent", uvm_component parent= null);
#     10              1                    ***0***         super.new(name, parent);
#     11                                                 endfunction 
#     12                                               
#     13                                                 virtual function void build_phase(uvm_phase phase);
#     14              1                    ***0***         super.build_phase(phase);
#     15              1                    ***0***         drv = ral_driver::type_id::create("drv", this);
#     16              1                    ***0***         seqr = ral_sequencer::type_id::create("seqr", this);
#     17              1                    ***0***         mon = ral_mon::type_id::create("mon", this);
#     18                                                 endfunction 
#     19                                               
#     20                                                 virtual function void connect_phase(uvm_phase phase);
#     21              1                    ***0***         super.connect_phase(phase);
#     22              1                    ***0***         drv.seq_item_port.connect(seqr.seq_item_export);
#     23                                                 endfunction 
#     24                                               
#     25                                               endclass
# 
# Branch Coverage:
#     Enabled Coverage            Active      Hits    Misses % Covered
#     ----------------            ------      ----    ------ ---------
#     Branches                         0         0         0     100.0
# Condition Coverage:
#     Enabled Coverage            Active   Covered    Misses % Covered
#     ----------------            ------      ----    ------ ---------
#     FEC Condition Terms              0         0         0     100.0
# Expression Coverage:
#     Enabled Coverage            Active   Covered    Misses % Covered
#     ----------------            ------      ----    ------ ---------
#     FEC Expression Terms             0         0         0     100.0
# FSM Coverage:
#     Enabled Coverage            Active      Hits    Misses % Covered
#     ----------------            ------      ----    ------ ---------
#     FSMs                                                       100.0
#         States                       0         0         0     100.0
#         Transitions                  0         0         0     100.0
# Toggle Coverage:
#     Enabled Coverage            Active      Hits    Misses % Covered
#     ----------------            ------      ----    ------ ---------
#     Toggle Bins                      0         0         0     100.0
# 
# ================================Toggle Details================================
# 
# Toggle Coverage for File ../src/testbench/ral_agent.sv --
# 
#        Line                                   Node      1H->0L      0L->1H  "Coverage"
# --------------------------------------------------------------------------------------
# 
# Total Node Count     =          0 
# Toggled Node Count   =          0 
# Untoggled Node Count =          0 
# 
# Toggle Coverage      =      100.0% (0 of 0 bins)
# 
# =================================================================================
# === File: ../src/testbench/ral_driver.sv
# =================================================================================
# Statement Coverage:
#     Enabled Coverage            Active      Hits    Misses % Covered
#     ----------------            ------      ----    ------ ---------
#     Stmts                           42         0        42       0.0
# 
# ================================Statement Details================================
# 
# Statement Coverage for file ../src/testbench/ral_driver.sv --
# 
#     1                                                class ral_driver extends uvm_driver#(ral_seq_item);
#     2                                                
#     3               1                    ***0***       `uvm_component_utils(ral_driver)
#     3               2                    ***0***     
#     3               3                    ***0***     
#     4                                                
#     5                                                  virtual ral_interface.mp_drv vif;
#     6                                                  ral_seq_item pkt;
#     7                                                
#     8                                                  function new(string name = "ral_driver", uvm_component parent = null);
#     9               1                    ***0***         super.new(name, parent);
#     10                                                 endfunction
#     11                                               
#     12                                                 function void build_phase(uvm_phase phase);
#     13              1                    ***0***         super.build_phase(phase);
#     14                                                   if(!uvm_config_db#(virtual ral_interface.mp_drv)::get(this, "", "vif", vif))
#     15              1                    ***0***           `uvm_fatal(get_type_name(), "Unable to get virtual interface");
#     16                                                 endfunction
#     17                                               
#     18                                                 task run_phase(uvm_phase phase);
#     19              1                    ***0***         super.run_phase(phase);
#     20              1                    ***0***         vif.cb_drv.psel    <= 1'b0;
#     21              1                    ***0***         vif.cb_drv.penable <= 1'b0;
#     22              1                    ***0***         vif.cb_drv.pwrite  <= 1'b0;
#     23              1                    ***0***         vif.cb_drv.paddr   <= 32'h0;
#     24              1                    ***0***         vif.cb_drv.pwdata  <= 32'h0;
#     25                                               
#     26              1                    ***0***         forever begin
#     27              1                    ***0***           seq_item_port.get_next_item(pkt); 
#     28              1                    ***0***           drive();
#     29              1                    ***0***           seq_item_port.item_done(); 
#     30              1                    ***0***           `uvm_info("DRV", $sformatf("Transaction completed: %s", pkt.sprint()), UVM_LOW);
#     31                                                   end
#     32                                                 endtask
#     33                                               
#     34                                                 task drive();
#     35                                               //    if(vif.presetn == 1'b1)
#     36                                                 //    begin
#     37                                                       if(pkt.pwrite == 1'b1)
#     38                                                         begin 
#     39              1                    ***0***                 @(vif.cb_drv);
#     40              1                    ***0***                 vif.presetn <= 1'b1;
#     41              1                    ***0***                 vif.cb_drv.pwrite  <= 1'b1;
#     42              1                    ***0***                 vif.cb_drv.psel    <= 1'b1;
#     43              1                    ***0***                 vif.cb_drv.paddr   <= pkt.paddr;
#     44              1                    ***0***                 vif.cb_drv.pwdata  <= pkt.pwdata;
#     45              1                    ***0***                 repeat(2)@(vif.cb_drv);
#     45              2                    ***0***     
#     46              1                    ***0***                 vif.cb_drv.penable <= 1'b1; 
#     47              1                    ***0***                 `uvm_info("DRV", $sformatf("Wdata : %0h, Addr : %0h",vif.cb_drv.pwdata, vif.cb_drv.paddr),UVM_NONE);
#     48              1                    ***0***                 @(vif.cb_drv);
#     49              1                    ***0***                 vif.cb_drv.psel    <= 1'b0;
#     50              1                    ***0***                 vif.cb_drv.penable <= 1'b0;
#     51                                                         end
#     52                                                       else
#     53                                                         begin
#     54              1                    ***0***                 @(vif.cb_drv);
#     55              1                    ***0***                 vif.cb_drv.pwrite  <= 1'b0;
#     56              1                    ***0***                 vif.cb_drv.paddr   <= pkt.paddr;
#     57              1                    ***0***                 vif.cb_drv.psel    <= 1'b1;
#     58              1                    ***0***                 repeat(2)@(vif.cb_drv);
#     58              2                    ***0***     
#     59              1                    ***0***                 vif.cb_drv.penable <= 1'b1; 
#     60              1                    ***0***                 `uvm_info("DRV", $sformatf("Rdata : %0h, Addr : %0h",vif.cb_drv.prdata, vif.cb_drv.paddr),UVM_NONE);
#     61              1                    ***0***                 @(vif.cb_drv);
#     62              1                    ***0***                 vif.cb_drv.psel    <= 1'b0;
#     63              1                    ***0***                 vif.cb_drv.penable <= 1'b0;
#     64              1                    ***0***                 pkt.prdata = vif.cb_drv.prdata; // Capture read data from DUT
#     65                                                         end
#     66                                                   //  end
#     67                                                 endtask
#     68                                               
#     69                                               endclass
#     70                                               
#     71                                               /*
#     72                                               class ral_driver extends uvm_driver#(ral_seq_item);
#     73                                               
#     74                                                 `uvm_component_utils(ral_driver)
#     75                                               
#     76                                                 virtual ral_interface.mp_drv vif;
#     77                                                 ral_seq_item pkt;
#     78                                               
#     79                                                 function new(string name = "ral_driver", uvm_component parent = null);
#     80                                                   super.new(name, parent);
#     81                                                 endfunction
#     82                                               
#     83                                                 function void build_phase(uvm_phase phase);
#     84                                                   super.build_phase(phase);
#     85                                                   if(!uvm_config_db#(virtual ral_interface.mp_drv)::get(this, "", "vif", vif))
#     86                                                     `uvm_fatal(get_type_name(), "Unable to get virtual interface");
#     87                                                 endfunction
#     88                                               
#     89                                                 task run_phase(uvm_phase phase);
#     90                                                   super.run_phase(phase);
#     91                                                   // Initialize bus signals to a safe state at the start of simulation
#     92                                                   // This should ideally be done in connect_phase or pre_reset/reset sequence if your DUT requires it
#     93                                                   // vif.presetn should be controlled by the testbench top, not the driver generally
#     94                                                    vif.cb_drv.psel    <= 1'b0;
#     95                                                    vif.cb_drv.penable <= 1'b0;
#     96                                                    vif.cb_drv.pwrite  <= 1'b0;
#     97                                                    vif.cb_drv.paddr   <= 32'h0;
#     98                                                    vif.cb_drv.pwdata  <= 32'h0;
#     99                                               
#     100                                                  forever begin
#     101                                                    seq_item_port.get_next_item(pkt);
#     102                                                    drive();
#     103                                                    seq_item_port.item_done();
#     104                                                    `uvm_info("DRV", $sformatf("Transaction completed: %s", pkt.sprint()), UVM_LOW);
#     105                                                  end
#     106                                                endtask
#     107                                              
#     108                                                task drive();
#     109                                                  if(pkt.pwrite == 1'b1) begin // Write Transaction
#     110                                                    // Cycle 1 (SETUP Phase)
#     111                                                    @(vif.cb_drv); // Wait for the positive clock edge
#     112                                                    vif.cb_drv.psel    <= 1'b1;
#     113                                                    vif.cb_drv.pwrite  <= 1'b1;
#     114                                                    vif.cb_drv.paddr   <= pkt.paddr;
#     115                                                    vif.cb_drv.pwdata  <= pkt.pwdata;
#     116                                                    vif.cb_drv.penable <= 1'b0; // Ensure penable is low in setup phase
#     117                                              
#     118                                                    // Cycle 2 (ACCESS Phase)
#     119                                                    @(vif.cb_drv); // Wait for the next positive clock edge
#     120                                                    vif.cb_drv.penable <= 1'b1; // Assert penable
#     121                                                    `uvm_info("DRV", $sformatf("APB Write: Addr=0x%0h, Data=0x%0h", vif.cb_drv.paddr, vif.cb_drv.pwdata), UVM_NONE);
#     122                                              
#     123                                                    // Cycle 3 (IDLE Phase / Transaction Completion)
#     124                                                    @(vif.cb_drv); // Wait for the next positive clock edge
#     125                                                    vif.cb_drv.psel    <= 1'b0;    // De-assert psel
#     126                                                    vif.cb_drv.penable <= 1'b0; // De-assert penable (can be done earlier for a single transaction)
#     127                                              
#     128                                                  end else begin // Read Transaction
#     129                                                    // Cycle 1 (SETUP Phase)
#     130                                                    @(vif.cb_drv); // Wait for the positive clock edge
#     131                                                    vif.cb_drv.psel    <= 1'b1;
#     132                                                    vif.cb_drv.pwrite  <= 1'b0;
#     133                                                    vif.cb_drv.paddr   <= pkt.paddr;
#     134                                                    vif.cb_drv.penable <= 1'b0; // Ensure penable is low in setup phase
#     135                                                    vif.cb_drv.pwdata  <= 32'hX; // Drive X for write data on reads (best practice)
#     136                                              
#     137                                                    // Cycle 2 (ACCESS Phase)
#     138                                                    @(vif.cb_drv); // Wait for the next positive clock edge
#     139                                                    vif.cb_drv.penable <= 1'b1; // Assert penable
#     140                                                    // prdata is valid from DUT AFTER this clock edge (i.e., in the subsequent @(vif.cb_drv))
#     141                                                    `uvm_info("DRV", $sformatf("APB Read Request: Addr=0x%0h", vif.cb_drv.paddr), UVM_NONE);
#     142                                              
#     143                                                    // Cycle 3 (READ DATA VALID Phase / IDLE Phase)
#     144                                                    @(vif.cb_drv); // Wait for the next positive clock edge. prdata is now stable.
#     145                                                    pkt.prdata = vif.cb_drv.prdata; // Capture read data from DUT
#     146                                              
#     147                                                    vif.cb_drv.psel    <= 1'b0;    // De-assert psel
#     148                                                    vif.cb_drv.penable <= 1'b0; // De-assert penable
#     149                                              
#     150                                                    `uvm_info("DRV", $sformatf("APB Read Response: Data=0x%0h", pkt.prdata, vif.cb_drv.paddr), UVM_NONE);
#     151                                                  end
#     152                                                endtask
#     153                                              
#     154                                              endclass
#     155                                              
#     156                                              */
# 
# Branch Coverage:
#     Enabled Coverage            Active      Hits    Misses % Covered
#     ----------------            ------      ----    ------ ---------
#     Branches                        12         0        12       0.0
# 
# ================================Branch Details================================
# 
# Branch Coverage for file ../src/testbench/ral_driver.sv --
# 
# ------------------------------------IF Branch------------------------------------
#     14                                   ***0***     Count coming in to IF
#     14              1                    ***0***         if(!uvm_config_db#(virtual ral_interface.mp_drv)::get(this, "", "vif", vif))
#                                          ***0***     All False Count
# Branch totals: 0 hits of 2 branches = 0.0%
# 
# ------------------------------------IF Branch------------------------------------
#     15                                   ***0***     Count coming in to IF
#     15              1                    ***0***           `uvm_fatal(get_type_name(), "Unable to get virtual interface");
#                                          ***0***     All False Count
# Branch totals: 0 hits of 2 branches = 0.0%
# 
# ------------------------------------IF Branch------------------------------------
#     30                                   ***0***     Count coming in to IF
#     30              1                    ***0***           `uvm_info("DRV", $sformatf("Transaction completed: %s", pkt.sprint()), UVM_LOW);
#                                          ***0***     All False Count
# Branch totals: 0 hits of 2 branches = 0.0%
# 
# ------------------------------------IF Branch------------------------------------
#     37                                   ***0***     Count coming in to IF
#     37              1                    ***0***             if(pkt.pwrite == 1'b1)
#     52              1                    ***0***             else
# Branch totals: 0 hits of 2 branches = 0.0%
# 
# ------------------------------------IF Branch------------------------------------
#     47                                   ***0***     Count coming in to IF
#     47              1                    ***0***                 `uvm_info("DRV", $sformatf("Wdata : %0h, Addr : %0h",vif.cb_drv.pwdata, vif.cb_drv.paddr),UVM_NONE);
#                                          ***0***     All False Count
# Branch totals: 0 hits of 2 branches = 0.0%
# 
# ------------------------------------IF Branch------------------------------------
#     60                                   ***0***     Count coming in to IF
#     60              1                    ***0***                 `uvm_info("DRV", $sformatf("Rdata : %0h, Addr : %0h",vif.cb_drv.prdata, vif.cb_drv.paddr),UVM_NONE);
#                                          ***0***     All False Count
# Branch totals: 0 hits of 2 branches = 0.0%
# 
# 
# Condition Coverage:
#     Enabled Coverage            Active   Covered    Misses % Covered
#     ----------------            ------      ----    ------ ---------
#     FEC Condition Terms              0         0         0     100.0
# Expression Coverage:
#     Enabled Coverage            Active   Covered    Misses % Covered
#     ----------------            ------      ----    ------ ---------
#     FEC Expression Terms             0         0         0     100.0
# FSM Coverage:
#     Enabled Coverage            Active      Hits    Misses % Covered
#     ----------------            ------      ----    ------ ---------
#     FSMs                                                       100.0
#         States                       0         0         0     100.0
#         Transitions                  0         0         0     100.0
# Toggle Coverage:
#     Enabled Coverage            Active      Hits    Misses % Covered
#     ----------------            ------      ----    ------ ---------
#     Toggle Bins                      0         0         0     100.0
# 
# ================================Toggle Details================================
# 
# Toggle Coverage for File ../src/testbench/ral_driver.sv --
# 
#        Line                                   Node      1H->0L      0L->1H  "Coverage"
# --------------------------------------------------------------------------------------
# 
# Total Node Count     =          0 
# Toggled Node Count   =          0 
# Untoggled Node Count =          0 
# 
# Toggle Coverage      =      100.0% (0 of 0 bins)
# 
# =================================================================================
# === File: ../src/testbench/ral_env.sv
# =================================================================================
# Statement Coverage:
#     Enabled Coverage            Active      Hits    Misses % Covered
#     ----------------            ------      ----    ------ ---------
#     Stmts                           14         0        14       0.0
# 
# ================================Statement Details================================
# 
# Statement Coverage for file ../src/testbench/ral_env.sv --
# 
#     1                                                class ral_env extends uvm_env;
#     2                                                
#     3               1                    ***0***       `uvm_component_utils(ral_env)
#     3               2                    ***0***     
#     3               3                    ***0***     
#     4                                                
#     5                                                  function new(string name = "ral_env",uvm_component parent);
#     6               1                    ***0***         super.new(name,parent);
#     7                                                  endfunction
#     8                                                
#     9                                                  ral_agent agent;
#     10                                                 ral_scb sb;
#     11                                                 reg_block regmodel;
#     12                                                 ral_adapter adapter;
#     13                                               
#     14                                                 function void build_phase(uvm_phase phase);
#     15              1                    ***0***         super.build_phase(phase);
#     16              1                    ***0***         agent = ral_agent::type_id::create("agent",this);
#     17                                                   //cov = ral_cov::type_id::create("cov",this);
#     18              1                    ***0***         regmodel = reg_block::type_id::create("regmodel", this);
#     19              1                    ***0***         regmodel.build();
#     20              1                    ***0***         adapter = ral_adapter::type_id::create("adapter",this);
#     21              1                    ***0***         sb = ral_scb::type_id::create("sb",this);
#     22                                                 endfunction
#     23                                               
#     24                                                 function void connect_phase(uvm_phase phase);
#     25              1                    ***0***         super.connect_phase(phase);
#     26              1                    ***0***         agent.mon.mon2sb_cov.connect(sb.sb2mon);
#     27              1                    ***0***         regmodel.default_map.set_sequencer( .sequencer(agent.seqr), .adapter(adapter) );
#     28              1                    ***0***         regmodel.default_map.set_base_addr(0);
#     29                                                   //regmodel.default_map.set_auto_predict(1);
#     30                                                 endfunction
#     31                                               
#     32                                               endclass
# 
# Branch Coverage:
#     Enabled Coverage            Active      Hits    Misses % Covered
#     ----------------            ------      ----    ------ ---------
#     Branches                         0         0         0     100.0
# Condition Coverage:
#     Enabled Coverage            Active   Covered    Misses % Covered
#     ----------------            ------      ----    ------ ---------
#     FEC Condition Terms              0         0         0     100.0
# Expression Coverage:
#     Enabled Coverage            Active   Covered    Misses % Covered
#     ----------------            ------      ----    ------ ---------
#     FEC Expression Terms             0         0         0     100.0
# FSM Coverage:
#     Enabled Coverage            Active      Hits    Misses % Covered
#     ----------------            ------      ----    ------ ---------
#     FSMs                                                       100.0
#         States                       0         0         0     100.0
#         Transitions                  0         0         0     100.0
# Toggle Coverage:
#     Enabled Coverage            Active      Hits    Misses % Covered
#     ----------------            ------      ----    ------ ---------
#     Toggle Bins                      0         0         0     100.0
# 
# ================================Toggle Details================================
# 
# Toggle Coverage for File ../src/testbench/ral_env.sv --
# 
#        Line                                   Node      1H->0L      0L->1H  "Coverage"
# --------------------------------------------------------------------------------------
# 
# Total Node Count     =          0 
# Toggled Node Count   =          0 
# Untoggled Node Count =          0 
# 
# Toggle Coverage      =      100.0% (0 of 0 bins)
# 
# =================================================================================
# === File: ../src/testbench/ral_interface.sv
# =================================================================================
# Statement Coverage:
#     Enabled Coverage            Active      Hits    Misses % Covered
#     ----------------            ------      ----    ------ ---------
#     Stmts                            2         0         2       0.0
# 
# ================================Statement Details================================
# 
# Statement Coverage for file ../src/testbench/ral_interface.sv --
# 
#     1                                                interface ral_interface(input logic pclk, input bit presetn);
#     2                                                
#     3                                                  logic psel;
#     4                                                  logic penable;
#     5                                                  logic pwrite;
#     6                                                  logic [31:0] paddr;
#     7                                                  logic [31:0] pwdata;
#     8                                                  logic [31:0] prdata;
#     9                                                
#     10              1                    ***0***       clocking cb_drv @(posedge pclk);
#     11                                                   default input #0 output #0;
#     12                                                   input presetn;
#     13                                                   inout psel;
#     14                                                   inout penable;
#     15                                                   inout pwrite;
#     16                                                   inout paddr;
#     17                                                   inout pwdata;
#     18                                                   input prdata;
#     19                                                 endclocking
#     20                                               
#     21              1                    ***0***       clocking cb_mon @(posedge pclk);
#     22                                                   default input #0 output #0;
#     23                                                   input psel;
#     24                                                   input penable;
#     25                                                   input pwrite;
#     26                                                   input paddr;
#     27                                                   input pwdata;
#     28                                                   input prdata;
#     29                                                 endclocking
#     30                                               
#     31                                                 modport mp_drv(clocking cb_drv, input pclk, presetn, prdata);
#     32                                                 modport mp_mon(clocking cb_mon, input pclk, presetn);
#     33                                               
#     34                                               // ASSERTIONS
#     35                                               
#     36                                               endinterface
#     37                                               
# 
# Branch Coverage:
#     Enabled Coverage            Active      Hits    Misses % Covered
#     ----------------            ------      ----    ------ ---------
#     Branches                         0         0         0     100.0
# Condition Coverage:
#     Enabled Coverage            Active   Covered    Misses % Covered
#     ----------------            ------      ----    ------ ---------
#     FEC Condition Terms              0         0         0     100.0
# Expression Coverage:
#     Enabled Coverage            Active   Covered    Misses % Covered
#     ----------------            ------      ----    ------ ---------
#     FEC Expression Terms             0         0         0     100.0
# FSM Coverage:
#     Enabled Coverage            Active      Hits    Misses % Covered
#     ----------------            ------      ----    ------ ---------
#     FSMs                                                       100.0
#         States                       0         0         0     100.0
#         Transitions                  0         0         0     100.0
# Toggle Coverage:
#     Enabled Coverage            Active      Hits    Misses % Covered
#     ----------------            ------      ----    ------ ---------
#     Toggle Bins                    202         0       202       0.0
# 
# ================================Toggle Details================================
# 
# Toggle Coverage for File ../src/testbench/ral_interface.sv --
# 
#        Line                                   Node      1H->0L      0L->1H  "Coverage"
# --------------------------------------------------------------------------------------
#           1                                presetn           0           0        0.00 
#           1                                   pclk           0           0        0.00 
#           3                                   psel           0           0        0.00 
#           4                                penable           0           0        0.00 
#           5                                 pwrite           0           0        0.00 
#           6                               paddr[9]           0           0        0.00 
#           6                               paddr[8]           0           0        0.00 
#           6                               paddr[7]           0           0        0.00 
#           6                               paddr[6]           0           0        0.00 
#           6                               paddr[5]           0           0        0.00 
#           6                               paddr[4]           0           0        0.00 
#           6                               paddr[3]           0           0        0.00 
#           6                              paddr[31]           0           0        0.00 
#           6                              paddr[30]           0           0        0.00 
#           6                               paddr[2]           0           0        0.00 
#           6                              paddr[29]           0           0        0.00 
#           6                              paddr[28]           0           0        0.00 
#           6                              paddr[27]           0           0        0.00 
#           6                              paddr[26]           0           0        0.00 
#           6                              paddr[25]           0           0        0.00 
#           6                              paddr[24]           0           0        0.00 
#           6                              paddr[23]           0           0        0.00 
#           6                              paddr[22]           0           0        0.00 
#           6                              paddr[21]           0           0        0.00 
#           6                              paddr[20]           0           0        0.00 
#           6                               paddr[1]           0           0        0.00 
#           6                              paddr[19]           0           0        0.00 
#           6                              paddr[18]           0           0        0.00 
#           6                              paddr[17]           0           0        0.00 
#           6                              paddr[16]           0           0        0.00 
#           6                              paddr[15]           0           0        0.00 
#           6                              paddr[14]           0           0        0.00 
#           6                              paddr[13]           0           0        0.00 
#           6                              paddr[12]           0           0        0.00 
#           6                              paddr[11]           0           0        0.00 
#           6                              paddr[10]           0           0        0.00 
#           6                               paddr[0]           0           0        0.00 
#           7                              pwdata[9]           0           0        0.00 
#           7                              pwdata[8]           0           0        0.00 
#           7                              pwdata[7]           0           0        0.00 
#           7                              pwdata[6]           0           0        0.00 
#           7                              pwdata[5]           0           0        0.00 
#           7                              pwdata[4]           0           0        0.00 
#           7                              pwdata[3]           0           0        0.00 
#           7                             pwdata[31]           0           0        0.00 
#           7                             pwdata[30]           0           0        0.00 
#           7                              pwdata[2]           0           0        0.00 
#           7                             pwdata[29]           0           0        0.00 
#           7                             pwdata[28]           0           0        0.00 
#           7                             pwdata[27]           0           0        0.00 
#           7                             pwdata[26]           0           0        0.00 
#           7                             pwdata[25]           0           0        0.00 
#           7                             pwdata[24]           0           0        0.00 
#           7                             pwdata[23]           0           0        0.00 
#           7                             pwdata[22]           0           0        0.00 
#           7                             pwdata[21]           0           0        0.00 
#           7                             pwdata[20]           0           0        0.00 
#           7                              pwdata[1]           0           0        0.00 
#           7                             pwdata[19]           0           0        0.00 
#           7                             pwdata[18]           0           0        0.00 
#           7                             pwdata[17]           0           0        0.00 
#           7                             pwdata[16]           0           0        0.00 
#           7                             pwdata[15]           0           0        0.00 
#           7                             pwdata[14]           0           0        0.00 
#           7                             pwdata[13]           0           0        0.00 
#           7                             pwdata[12]           0           0        0.00 
#           7                             pwdata[11]           0           0        0.00 
#           7                             pwdata[10]           0           0        0.00 
#           7                              pwdata[0]           0           0        0.00 
#           8                              prdata[9]           0           0        0.00 
#           8                              prdata[8]           0           0        0.00 
#           8                              prdata[7]           0           0        0.00 
#           8                              prdata[6]           0           0        0.00 
#           8                              prdata[5]           0           0        0.00 
#           8                              prdata[4]           0           0        0.00 
#           8                              prdata[3]           0           0        0.00 
#           8                             prdata[31]           0           0        0.00 
#           8                             prdata[30]           0           0        0.00 
#           8                              prdata[2]           0           0        0.00 
#           8                             prdata[29]           0           0        0.00 
#           8                             prdata[28]           0           0        0.00 
#           8                             prdata[27]           0           0        0.00 
#           8                             prdata[26]           0           0        0.00 
#           8                             prdata[25]           0           0        0.00 
#           8                             prdata[24]           0           0        0.00 
#           8                             prdata[23]           0           0        0.00 
#           8                             prdata[22]           0           0        0.00 
#           8                             prdata[21]           0           0        0.00 
#           8                             prdata[20]           0           0        0.00 
#           8                              prdata[1]           0           0        0.00 
#           8                             prdata[19]           0           0        0.00 
#           8                             prdata[18]           0           0        0.00 
#           8                             prdata[17]           0           0        0.00 
#           8                             prdata[16]           0           0        0.00 
#           8                             prdata[15]           0           0        0.00 
#           8                             prdata[14]           0           0        0.00 
#           8                             prdata[13]           0           0        0.00 
#           8                             prdata[12]           0           0        0.00 
#           8                             prdata[11]           0           0        0.00 
#           8                             prdata[10]           0           0        0.00 
#           8                              prdata[0]           0           0        0.00 
# 
# Total Node Count     =        101 
# Toggled Node Count   =          0 
# Untoggled Node Count =        101 
# 
# Toggle Coverage      =        0.0% (0 of 202 bins)
# 
# =================================================================================
# === File: ../src/testbench/ral_monitor.sv
# =================================================================================
# Statement Coverage:
#     Enabled Coverage            Active      Hits    Misses % Covered
#     ----------------            ------      ----    ------ ---------
#     Stmts                           18         0        18       0.0
# 
# ================================Statement Details================================
# 
# Statement Coverage for file ../src/testbench/ral_monitor.sv --
# 
#     1                                                class ral_mon extends uvm_monitor;
#     2               1                    ***0***       `uvm_component_utils(ral_mon)
#     2               2                    ***0***     
#     2               3                    ***0***     
#     3                                                
#     4                                                  virtual ral_interface.mp_mon vif;
#     5                                                  uvm_analysis_port #(ral_seq_item) mon2sb_cov;
#     6                                                  ral_seq_item pkt;
#     7                                                
#     8                                                  function new(string name = "ral_mon", uvm_component parent);
#     9               1                    ***0***         super.new(name, parent);
#     10                                                 endfunction
#     11                                               
#     12                                                 function void build_phase(uvm_phase phase);
#     13              1                    ***0***         super.build_phase(phase);
#     14              1                    ***0***         mon2sb_cov = new("mon2sb_cov", this);
#     15                                                   if(!uvm_config_db#(virtual ral_interface.mp_mon)::get(this, "", "vif", vif))
#     16              1                    ***0***           `uvm_error("monitor", "Unable to get virtual interface");
#     17                                                 endfunction
#     18                                               
#     19                                                 virtual task run_phase(uvm_phase phase);
#     20              1                    ***0***         pkt = ral_seq_item::type_id::create("pkt");
#     21              1                    ***0***         forever begin
#     22                                                     //  repeat(3) @(vif.cb_mon);
#     23              1                    ***0***           @(vif.cb_mon);
#     24              1                    ***0***           $display("-------------monitor begin----------");
#     25              1                    ***0***           pkt.paddr    =   vif.cb_mon.paddr;
#     26              1                    ***0***           pkt.pwrite   =   vif.cb_mon.pwrite;
#     27              1                    ***0***           pkt.psel     =   vif.cb_mon.psel;
#     28              1                    ***0***           pkt.penable  =   vif.cb_mon.penable;
#     29              1                    ***0***           pkt.pwdata   =   vif.cb_mon.pwdata;
#     30              1                    ***0***           pkt.prdata   =   vif.cb_mon.prdata;
#     31                                               
#     32              1                    ***0***           mon2sb_cov.write(pkt);
#     33                                               
#     34                                                   end
#     35                                                 endtask
#     36                                               
#     37                                               endclass
# 
# Branch Coverage:
#     Enabled Coverage            Active      Hits    Misses % Covered
#     ----------------            ------      ----    ------ ---------
#     Branches                         4         0         4       0.0
# 
# ================================Branch Details================================
# 
# Branch Coverage for file ../src/testbench/ral_monitor.sv --
# 
# ------------------------------------IF Branch------------------------------------
#     15                                   ***0***     Count coming in to IF
#     15              1                    ***0***         if(!uvm_config_db#(virtual ral_interface.mp_mon)::get(this, "", "vif", vif))
#                                          ***0***     All False Count
# Branch totals: 0 hits of 2 branches = 0.0%
# 
# ------------------------------------IF Branch------------------------------------
#     16                                   ***0***     Count coming in to IF
#     16              1                    ***0***           `uvm_error("monitor", "Unable to get virtual interface");
#                                          ***0***     All False Count
# Branch totals: 0 hits of 2 branches = 0.0%
# 
# 
# Condition Coverage:
#     Enabled Coverage            Active   Covered    Misses % Covered
#     ----------------            ------      ----    ------ ---------
#     FEC Condition Terms              0         0         0     100.0
# Expression Coverage:
#     Enabled Coverage            Active   Covered    Misses % Covered
#     ----------------            ------      ----    ------ ---------
#     FEC Expression Terms             0         0         0     100.0
# FSM Coverage:
#     Enabled Coverage            Active      Hits    Misses % Covered
#     ----------------            ------      ----    ------ ---------
#     FSMs                                                       100.0
#         States                       0         0         0     100.0
#         Transitions                  0         0         0     100.0
# Toggle Coverage:
#     Enabled Coverage            Active      Hits    Misses % Covered
#     ----------------            ------      ----    ------ ---------
#     Toggle Bins                      0         0         0     100.0
# 
# ================================Toggle Details================================
# 
# Toggle Coverage for File ../src/testbench/ral_monitor.sv --
# 
#        Line                                   Node      1H->0L      0L->1H  "Coverage"
# --------------------------------------------------------------------------------------
# 
# Total Node Count     =          0 
# Toggled Node Count   =          0 
# Untoggled Node Count =          0 
# 
# Toggle Coverage      =      100.0% (0 of 0 bins)
# 
# =================================================================================
# === File: ../src/testbench/ral_regblock.sv
# =================================================================================
# Statement Coverage:
#     Enabled Coverage            Active      Hits    Misses % Covered
#     ----------------            ------      ----    ------ ---------
#     Stmts                          131         0       131       0.0
# 
# ================================Statement Details================================
# 
# Statement Coverage for file ../src/testbench/ral_regblock.sv --
# 
#     1                                                /*class ctrl extends uvm_reg;
#     2                                                  `uvm_object_utils(ctrl)
#     3                                                  rand uvm_reg_field ctrl_field;
#     4                                                
#     5                                                  function new(string name = "ctrl");
#     6                                                    super.new(name, 4, UVM_NO_COVERAGE);
#     7                                                  endfunction
#     8                                                
#     9                                                  function void build;
#     10                                                   ctrl_field = uvm_reg_field::type_id::create("ctrl_field");
#     11                                                   ctrl_field.configure(this, 4, 0, "RW", 0, 0, 1, 1, 1);
#     12                                                 endfunction
#     13                                               endclass
#     14                                               
#     15                                               class reg1 extends uvm_reg;
#     16                                                 `uvm_object_utils(reg1)
#     17                                                 rand uvm_reg_field reg1_field;
#     18                                               
#     19                                                 function new(string name = "reg1");
#     20                                                   super.new(name, 32, UVM_NO_COVERAGE);
#     21                                                 endfunction
#     22                                               
#     23                                                 function void build;
#     24                                                   reg1_field = uvm_reg_field::type_id::create("reg1_field");
#     25                                                   reg1_field.configure(this, 32, 0, "RW", 0, 32'hA5A5_0000, 1, 1, 1);
#     26                                                 endfunction
#     27                                               endclass
#     28                                               
#     29                                               class reg2 extends uvm_reg;
#     30                                                 `uvm_object_utils(reg2)
#     31                                                 rand uvm_reg_field reg2_field;
#     32                                               
#     33                                                 function new(string name = "reg2");
#     34                                                   super.new(name, 32, UVM_NO_COVERAGE);
#     35                                                 endfunction
#     36                                               
#     37                                                 function void build;
#     38                                                   reg2_field = uvm_reg_field::type_id::create("reg2_field");
#     39                                                   reg2_field.configure(this, 32, 0, "RW", 0, 32'h1234_9876, 1, 1, 1);
#     40                                                 endfunction
#     41                                               endclass
#     42                                               
#     43                                               class reg3 extends uvm_reg;
#     44                                                 `uvm_object_utils(reg3)
#     45                                                 rand uvm_reg_field reg3_field;
#     46                                               
#     47                                                 function new(string name = "reg3");
#     48                                                   super.new(name, 32, UVM_NO_COVERAGE);
#     49                                                 endfunction
#     50                                               
#     51                                                 function void build;
#     52                                                   reg3_field = uvm_reg_field::type_id::create("reg3_field");
#     53                                                   reg3_field.configure(this, 32, 0, "RW", 0, 32'h5A5A_5555, 1, 1, 1);
#     54                                                 endfunction
#     55                                               endclass
#     56                                               
#     57                                               class reg4 extends uvm_reg;
